T5B00 039:690 SEGGER J-Link V6.32i Log File (0000ms, 2202ms total)
T5B00 039:690 DLL Compiled: Jul 24 2018 15:19:55 (0000ms, 2202ms total)
T5B00 039:690 Logging started @ 2018-11-28 13:03 (0000ms, 2202ms total)
T5B00 039:690 JLINK_SetWarnOutHandler(...) (0000ms, 2202ms total)
T5B00 039:690 JLINK_OpenEx(...)
Firmware: J-Link V9 compiled Apr 20 2018 16:47:26
Hardware: V9.30
S/N: 36310083
Feature(s): RDI, GDB, FlashDL, FlashBP, JFlash
TELNET listener socket opened on port 19021Device "STM32H743II" selected.WEBSRV 
Starting webserver (0043ms, 2245ms total)
T5B00 039:690 WEBSRV Webserver running on local port 19080 (0044ms, 2246ms total)
T5B00 039:690   returns O.K. (0044ms, 2246ms total)
T5B00 039:734 JLINK_GetEmuCaps()  returns 0xB9FF7BBF (0000ms, 2246ms total)
T5B00 039:735 JLINK_TIF_GetAvailable(...) (0001ms, 2247ms total)
T5B00 039:736 JLINK_SetErrorOutHandler(...) (0000ms, 2247ms total)
T5B00 039:736 JLINK_ExecCommand("ProjectFile = "C:\Users\Administrator\Desktop\github_code\Planof2019_half\Course_Project\STM32H7\Class07_RNG\RNG\MDK-ARM\JLinkSettings.ini"", ...). Device "STM32H743II" selected.  returns 0x00 (0002ms, 2249ms total)
T5B00 039:738 JLINK_ExecCommand("Device = STM32H743IITx", ...). Device "STM32H743II" selected.  returns 0x00 (0002ms, 2251ms total)
T5B00 039:740 JLINK_ExecCommand("DisableConnectionTimeout", ...).   returns 0x01 (0000ms, 2251ms total)
T5B00 039:740 JLINK_GetHardwareVersion()  returns 0x16B48 (0000ms, 2251ms total)
T5B00 039:740 JLINK_GetDLLVersion()  returns 63209 (0000ms, 2251ms total)
T5B00 039:740 JLINK_GetFirmwareString(...) (0000ms, 2251ms total)
T5B00 039:740 JLINK_GetDLLVersion()  returns 63209 (0000ms, 2251ms total)
T5B00 039:740 JLINK_GetCompileDateTime() (0000ms, 2251ms total)
T5B00 039:740 JLINK_GetFirmwareString(...) (0000ms, 2251ms total)
T5B00 039:740 JLINK_GetHardwareVersion()  returns 0x16B48 (0000ms, 2251ms total)
T5B00 039:740 JLINK_TIF_Select(JLINKARM_TIF_JTAG)  returns 0x00 (0005ms, 2256ms total)
T5B00 039:745 JLINK_SetSpeed(5000) (0000ms, 2256ms total)
T5B00 039:745 JLINK_GetIdData(...) >0x2F8 JTAG>TotalIRLen = 9, IRPrint = 0x0011 >0x30 JTAG> >0x50 JTAG>JTAG chain detection found 2 devices: #0 Id: 0x6BA00477, IRLen: 04, CoreSight JTAG-DP #1 Id: 0x06450041, IRLen: 05, Unknown deviceScanning AP map to find all available APs >0x80 JTAG> >0x50 JTAG> >0x40 JTAG> >0x40 JTAG> >0x50 JTAG> >0x40 JTAG> >0x40 JTAG> >0x50 JTAG> >0x40 JTAG> >0x40 JTAG> >0x50 JTAG> >0x40 JTAG>AP[3]: Stopped AP scan as end of AP map has been reachedAP[0]: AHB-AP (IDR: 0x84770001)
AP[1]: AHB-AP (IDR: 0x84770001)AP[2]: APB-AP (IDR: 0x54770002)Iterating through AP map to find AHB-AP to use >0x80 JTAG> >0x50 JTAG> >0x50 JTAG> >0x80 JTAG> >0x40 JTAG> >0x30 JTAG> >0x40 JTAG> >0x40 JTAG>AP[0]: Core foundAP[0]: AHB-AP ROM base: 0xE00FE000 >0x40 JTAG> >0x40 JTAG> >0x30 JTAG> >0x40 JTAG> >0x40 JTAG>CPUID register: 0x411FC271. Implementer code: 0x41 (ARM)Found Cortex-M7 r1p1, Little endian. -- Max. mem block: 0x00010F28 -- CPU_ReadMem(4 bytes @ 0xE000EDF0)
 -- CPU_WriteMem(4 bytes @ 0xE000EDF0) -- CPU_ReadMem(4 bytes @ 0xE0002000)FPUnit: 8 code (BP) slots and 0 literal slots -- CPU_ReadMem(4 bytes @ 0xE000EDFC) -- CPU_WriteMem(4 bytes @ 0xE000EDFC) -- CPU_ReadMem(4 bytes @ 0xE0001000) -- CPU_WriteMem(4 bytes @ 0xE0001000) -- CPU_ReadMem(4 bytes @ 0xE000ED88) -- CPU_WriteMem(4 bytes @ 0xE000ED88) -- CPU_ReadMem(4 bytes @ 0xE000ED88) -- CPU_WriteMem(4 bytes @ 0xE000ED88)CoreSight components:ROMTbl[0] @ E00FE000 -- CPU_ReadMem(16 bytes @ 0xE00FE000)
 -- CPU_ReadMem(16 bytes @ 0xE00FFFF0) -- CPU_ReadMem(16 bytes @ 0xE00FFFE0)ROMTbl[0][0]: E00FF000, CID: B105100D, PID: 000BB4C7 ROM TableROMTbl[1] @ E00FF000 -- CPU_ReadMem(16 bytes @ 0xE00FF000) -- CPU_ReadMem(16 bytes @ 0xE000EFF0) -- CPU_ReadMem(16 bytes @ 0xE000EFE0)ROMTbl[1][0]: E000E000, CID: B105E00D, PID: 000BB00C SCS-M7 -- CPU_ReadMem(16 bytes @ 0xE0001FF0) -- CPU_ReadMem(16 bytes @ 0xE0001FE0)ROMTbl[1][1]: E0001000, CID: B105E00D, PID: 000BB002 DWT -- CPU_ReadMem(16 bytes @ 0xE0002FF0)
 -- CPU_ReadMem(16 bytes @ 0xE0002FE0)ROMTbl[1][2]: E0002000, CID: B105E00D, PID: 000BB00E FPB-M7 -- CPU_ReadMem(16 bytes @ 0xE0000FF0) -- CPU_ReadMem(16 bytes @ 0xE0000FE0)ROMTbl[1][3]: E0000000, CID: B105E00D, PID: 000BB001 ITM -- CPU_ReadMem(16 bytes @ 0xE00FF010) -- CPU_ReadMem(16 bytes @ 0xE0041FF0) -- CPU_ReadMem(16 bytes @ 0xE0041FE0)ROMTbl[0][1]: E0041000, CID: B105900D, PID: 001BB975 ETM-M7 -- CPU_ReadMem(16 bytes @ 0xE0043FF0) -- CPU_ReadMem(16 bytes @ 0xE0043FE0)
ROMTbl[0][2]: E0043000, CID: B105900D, PID: 004BB906 CTI -- CPU_ReadMem(16 bytes @ 0xE00FE010) -- CPU_ReadMem(4 bytes @ 0xE000ED78)Cache: Separate I- and D-cache. (0124ms, 2380ms total)
T5B00 039:745  -- CPU_WriteMem(4 bytes @ 0xE000ED84) -- CPU_ReadMem(4 bytes @ 0xE000ED80)I-Cache L1: 16 KB, 256 Sets, 32 Bytes/Line, 2-Way -- CPU_WriteMem(4 bytes @ 0xE000ED84) -- CPU_ReadMem(4 bytes @ 0xE000ED80)D-Cache L1: 16 KB, 128 Sets, 32 Bytes/Line, 4-Way ScanLen=9 NumDevices=2 aId[0]=0x6BA00477 aIrRead[0]=0 aScanLen[0]=0 aScanRead[0]=0 (0132ms, 2388ms total)
T5B00 039:877 JLINK_JTAG_GetDeviceID(DeviceIndex = 0)  returns 0x6BA00477 (0000ms, 2388ms total)
T5B00 039:877 JLINK_JTAG_GetDeviceInfo(DeviceIndex = 0)  returns 0x00 (0000ms, 2388ms total)
T5B00 039:877 JLINK_JTAG_GetDeviceID(DeviceIndex = 1)  returns 0x6450041 (0000ms, 2388ms total)
T5B00 039:877 JLINK_JTAG_GetDeviceInfo(DeviceIndex = 1)  returns 0x01 (0000ms, 2388ms total)
T5B00 039:877 JLINK_GetDLLVersion()  returns 63209 (0000ms, 2388ms total)
T5B00 039:877 JLINK_CORE_GetFound()  returns 0xE0100FF (0000ms, 2388ms total)
T5B00 039:877 JLINK_GetDebugInfo(0x100 = JLINKARM_ROM_TABLE_ADDR_INDEX) -- Value=0xE00FE000  returns 0x00 (0000ms, 2388ms total)
T5B00 039:877 JLINK_GetDebugInfo(0x100 = JLINKARM_ROM_TABLE_ADDR_INDEX) -- Value=0xE00FE000  returns 0x00 (0000ms, 2388ms total)
T5B00 039:877 JLINK_GetDebugInfo(0x101 = JLINKARM_DEBUG_INFO_ETM_ADDR_INDEX) -- Value=0xE0041000  returns 0x00 (0000ms, 2388ms total)
T5B00 039:877 JLINK_ReadMemEx(0xE0041FD0, 0x0020 Bytes, ..., Flags = 0x02000004) -- CPU_ReadMem(32 bytes @ 0xE0041FD0) - Data: 04 00 00 00 00 00 00 00 00 00 00 00 00 00 00 00 ...  returns 0x20 (0002ms, 2390ms total)
T5B00 039:879 JLINK_GetDebugInfo(0x102 = JLINKARM_DEBUG_INFO_MTB_ADDR_INDEX) -- Value=0x00000000  returns 0x00 (0000ms, 2390ms total)
T5B00 039:879 JLINK_GetDebugInfo(0x103 = JLINKARM_DEBUG_INFO_TPIU_ADDR_INDEX) -- Value=0x00000000  returns 0x00 (0000ms, 2390ms total)
T5B00 039:879 JLINK_ReadMemEx(0xE0040FF0, 0x0010 Bytes, ..., Flags = 0x02000004) -- CPU_ReadMem(16 bytes @ 0xE0040FF0) - Data: 00 00 00 00 00 00 00 00 00 00 00 00 00 00 00 00  returns 0x10 (0002ms, 2392ms total)
T5B00 039:881 JLINK_GetDebugInfo(0x104 = JLINKARM_DEBUG_INFO_ITM_ADDR_INDEX) -- Value=0xE0000000  returns 0x00 (0000ms, 2392ms total)
T5B00 039:881 JLINK_GetDebugInfo(0x105 = JLINKARM_DEBUG_INFO_DWT_ADDR_INDEX) -- Value=0xE0001000  returns 0x00 (0000ms, 2392ms total)
T5B00 039:881 JLINK_GetDebugInfo(0x106 = JLINKARM_DEBUG_INFO_FPB_ADDR_INDEX) -- Value=0xE0002000  returns 0x00 (0000ms, 2392ms total)
T5B00 039:881 JLINK_GetDebugInfo(0x107 = JLINKARM_DEBUG_INFO_NVIC_ADDR_INDEX) -- Value=0xE000E000  returns 0x00 (0000ms, 2392ms total)
T5B00 039:881 JLINK_GetDebugInfo(0x10C = JLINKARM_DEBUG_INFO_DBG_ADDR_INDEX) -- Value=0xE000EDF0  returns 0x00 (0000ms, 2392ms total)
T5B00 039:881 JLINK_GetDebugInfo(0x01 = Unknown) -- Value=0x00000001  returns 0x00 (0000ms, 2392ms total)
T5B00 039:881 JLINK_ReadMemU32(0xE000ED00, 0x0001 Items, ...) -- CPU_ReadMem(4 bytes @ 0xE000ED00) - Data: 71 C2 1F 41  returns 0x01 (0002ms, 2394ms total)
T5B00 039:883 JLINK_GetDebugInfo(0x10F = JLINKARM_DEBUG_INFO_HAS_CORTEX_M_SECURITY_EXT_INDEX) -- Value=0x00000000  returns 0x00 (0000ms, 2394ms total)
T5B00 039:883 JLINK_SetResetType(JLINKARM_CM3_RESET_TYPE_NORMAL)  returns JLINKARM_CM3_RESET_TYPE_NORMAL (0000ms, 2394ms total)
T5B00 039:883 JLINK_Reset() -- CPU is running -- CPU_WriteMem(4 bytes @ 0xE000EDF0) -- CPU is running -- CPU_WriteMem(4 bytes @ 0xE000EDFC)Reset: Halt core after reset via DEMCR.VC_CORERESET.Reset: Reset device via AIRCR.SYSRESETREQ. -- CPU is running -- CPU_WriteMem(4 bytes @ 0xE000ED0C) -- CPU_ReadMem(4 bytes @ 0xE000EDF0) -- CPU_ReadMem(4 bytes @ 0xE000EDF0) -- CPU is running -- CPU_WriteMem(4 bytes @ 0xE000EDF0) -- CPU is running -- CPU_WriteMem(4 bytes @ 0xE000EDFC)
 -- CPU_ReadMem(4 bytes @ 0xE000EDF0) -- CPU_WriteMem(4 bytes @ 0xE000EDFC) -- CPU_WriteMem(4 bytes @ 0xE0001028) -- CPU_WriteMem(4 bytes @ 0xE0001038) -- CPU_WriteMem(4 bytes @ 0xE0001048) -- CPU_WriteMem(4 bytes @ 0xE0001058) -- CPU_WriteMem(4 bytes @ 0xE0002000) -- CPU_ReadMem(4 bytes @ 0xE000EDFC) -- CPU_ReadMem(4 bytes @ 0xE0001000) (0093ms, 2487ms total)
T5B00 039:976 JLINK_ReadReg(R15 (PC))  returns 0x080002AC (0000ms, 2487ms total)
T5B00 039:976 JLINK_ReadReg(XPSR)  returns 0x01000000 (0000ms, 2487ms total)
T5B00 039:976 JLINK_Halt()  returns 0x00 (0000ms, 2487ms total)
T5B00 039:976 JLINK_ReadMemU32(0xE000EDF0, 0x0001 Items, ...) -- CPU_ReadMem(4 bytes @ 0xE000EDF0) - Data: 03 00 03 00  returns 0x01 (0002ms, 2489ms total)
T5B00 039:978 JLINK_WriteU32(0xE000EDF0, 0xA05F0003) -- CPU_WriteMem(4 bytes @ 0xE000EDF0)  returns 0x00 (0002ms, 2491ms total)
T5B00 039:980 JLINK_WriteU32(0xE000EDFC, 0x01000000) -- CPU_WriteMem(4 bytes @ 0xE000EDFC)  returns 0x00 (0002ms, 2493ms total)
T5B00 039:982 JLINK_GetHWStatus(...)  returns 0x00 (0001ms, 2494ms total)
T5B00 039:983 JLINK_GetNumBPUnits(Type = 0xFFFFFF00)  returns 0x08 (0000ms, 2494ms total)
T5B00 039:983 JLINK_GetNumBPUnits(Type = 0xF0)  returns 0x2000 (0000ms, 2494ms total)
T5B00 039:983 JLINK_GetNumWPUnits()  returns 0x04 (0000ms, 2494ms total)
T5B00 039:983 JLINK_GetSpeed()  returns 0x1388 (0000ms, 2494ms total)
T5B00 039:983 JLINK_ReadMemU32(0xE000E004, 0x0001 Items, ...) -- CPU_ReadMem(4 bytes @ 0xE000E004) - Data: 04 00 00 00  returns 0x01 (0002ms, 2496ms total)
T5B00 039:985 JLINK_ReadMemU32(0xE000E004, 0x0001 Items, ...) -- CPU_ReadMem(4 bytes @ 0xE000E004) - Data: 04 00 00 00  returns 0x01 (0002ms, 2498ms total)
T5B00 039:987 JLINK_WriteMemEx(0xE0001000, 0x001C Bytes, ..., Flags = 0x02000004) - Data: 01 00 00 00 00 00 00 00 00 00 00 00 00 00 00 00 ... -- CPU_WriteMem(28 bytes @ 0xE0001000)  returns 0x1C (0002ms, 2500ms total)
T5B00 039:989 JLINK_ReadReg(R15 (PC))  returns 0x080002AC (0000ms, 2500ms total)
T5B00 039:989 JLINK_ReadReg(XPSR)  returns 0x01000000 (0000ms, 2500ms total)
T5B00 039:994 JLINK_ReadMemEx(0xE0001004, 0x0004 Bytes, ..., Flags = 0x02000000) - Data: 00 00 00 00  returns 0x04 (0000ms, 2500ms total)
T5B00 040:099 JLINK_SetResetType(JLINKARM_CM3_RESET_TYPE_NORMAL)  returns JLINKARM_CM3_RESET_TYPE_NORMAL (0000ms, 2501ms total)
T5B00 040:099 JLINK_Reset() -- CPU_WriteMem(4 bytes @ 0xE000EDF0) -- CPU_WriteMem(4 bytes @ 0xE000EDFC)Reset: Halt core after reset via DEMCR.VC_CORERESET.Reset: Reset device via AIRCR.SYSRESETREQ. -- CPU_WriteMem(4 bytes @ 0xE000ED0C) -- CPU_ReadMem(4 bytes @ 0xE000EDF0) -- CPU_ReadMem(4 bytes @ 0xE000EDF0) -- CPU_WriteMem(4 bytes @ 0xE000EDF0) -- CPU_WriteMem(4 bytes @ 0xE000EDFC) -- CPU_ReadMem(4 bytes @ 0xE000EDF0) -- CPU_WriteMem(4 bytes @ 0xE000EDFC) -- CPU_WriteMem(4 bytes @ 0xE0001028)
 -- CPU_WriteMem(4 bytes @ 0xE0001038) -- CPU_WriteMem(4 bytes @ 0xE0001048) -- CPU_WriteMem(4 bytes @ 0xE0001058) -- CPU_WriteMem(4 bytes @ 0xE0002000) -- CPU_ReadMem(4 bytes @ 0xE000EDFC) -- CPU_ReadMem(4 bytes @ 0xE0001000) (0092ms, 2593ms total)
T5B00 040:191 JLINK_ReadReg(R15 (PC))  returns 0x080002AC (0000ms, 2593ms total)
T5B00 040:191 JLINK_ReadReg(XPSR)  returns 0x01000000 (0000ms, 2593ms total)
T5B00 040:191 JLINK_ReadReg(R0)  returns 0x00000000 (0000ms, 2593ms total)
T5B00 040:191 JLINK_ReadReg(R1)  returns 0x00000000 (0000ms, 2593ms total)
T5B00 040:191 JLINK_ReadReg(R2)  returns 0x00000000 (0000ms, 2593ms total)
T5B00 040:191 JLINK_ReadReg(R3)  returns 0x00000000 (0000ms, 2593ms total)
T5B00 040:191 JLINK_ReadReg(R4)  returns 0x00000000 (0000ms, 2593ms total)
T5B00 040:191 JLINK_ReadReg(R5)  returns 0x00000000 (0000ms, 2593ms total)
T5B00 040:191 JLINK_ReadReg(R6)  returns 0x00000000 (0000ms, 2593ms total)
T5B00 040:191 JLINK_ReadReg(R7)  returns 0x00000000 (0000ms, 2593ms total)
T5B00 040:191 JLINK_ReadReg(R8)  returns 0x00000000 (0000ms, 2593ms total)
T5B00 040:191 JLINK_ReadReg(R9)  returns 0x00000000 (0000ms, 2593ms total)
T5B00 040:191 JLINK_ReadReg(R10)  returns 0x00000000 (0000ms, 2593ms total)
T5B00 040:191 JLINK_ReadReg(R11)  returns 0x00000000 (0000ms, 2593ms total)
T5B00 040:191 JLINK_ReadReg(R12)  returns 0x00000000 (0000ms, 2593ms total)
T5B00 040:191 JLINK_ReadReg(R13 (SP))  returns 0x20000428 (0000ms, 2593ms total)
T5B00 040:191 JLINK_ReadReg(R14)  returns 0xFFFFFFFF (0000ms, 2593ms total)
T5B00 040:191 JLINK_ReadReg(R15 (PC))  returns 0x080002AC (0000ms, 2593ms total)
T5B00 040:191 JLINK_ReadReg(XPSR)  returns 0x01000000 (0000ms, 2593ms total)
T5B00 040:191 JLINK_ReadReg(MSP)  returns 0x20000428 (0000ms, 2593ms total)
T5B00 040:191 JLINK_ReadReg(PSP)  returns 0x00000000 (0000ms, 2593ms total)
T5B00 040:191 JLINK_ReadReg(CFBP)  returns 0x00000000 (0000ms, 2593ms total)
T5B00 040:191 JLINK_ReadReg(FPSCR)  returns 0x00000000 (0006ms, 2599ms total)
T5B00 040:197 JLINK_ReadReg(FPS0)  returns 0x00000000 (0000ms, 2599ms total)
T5B00 040:197 JLINK_ReadReg(FPS1)  returns 0x00000000 (0000ms, 2599ms total)
T5B00 040:197 JLINK_ReadReg(FPS2)  returns 0x00000000 (0000ms, 2599ms total)
T5B00 040:197 JLINK_ReadReg(FPS3)  returns 0x00000000 (0000ms, 2599ms total)
T5B00 040:197 JLINK_ReadReg(FPS4)  returns 0x00000000 (0000ms, 2599ms total)
T5B00 040:197 JLINK_ReadReg(FPS5)  returns 0x00000000 (0000ms, 2599ms total)
T5B00 040:197 JLINK_ReadReg(FPS6)  returns 0x00000000 (0000ms, 2599ms total)
T5B00 040:197 JLINK_ReadReg(FPS7)  returns 0x00000000 (0000ms, 2599ms total)
T5B00 040:197 JLINK_ReadReg(FPS8)  returns 0x00000000 (0000ms, 2599ms total)
T5B00 040:197 JLINK_ReadReg(FPS9)  returns 0x00000000 (0000ms, 2599ms total)
T5B00 040:197 JLINK_ReadReg(FPS10)  returns 0x00000000 (0000ms, 2599ms total)
T5B00 040:197 JLINK_ReadReg(FPS11)  returns 0x00000000 (0000ms, 2599ms total)
T5B00 040:197 JLINK_ReadReg(FPS12)  returns 0x00000000 (0000ms, 2599ms total)
T5B00 040:197 JLINK_ReadReg(FPS13)  returns 0x00000000 (0000ms, 2599ms total)
T5B00 040:197 JLINK_ReadReg(FPS14)  returns 0x00000000 (0000ms, 2599ms total)
T5B00 040:197 JLINK_ReadReg(FPS15)  returns 0xFFFFFFFF (0000ms, 2599ms total)
T5B00 040:197 JLINK_ReadReg(FPS16)  returns 0x00000000 (0000ms, 2599ms total)
T5B00 040:197 JLINK_ReadReg(FPS17)  returns 0x00000000 (0000ms, 2599ms total)
T5B00 040:197 JLINK_ReadReg(FPS18)  returns 0x00000000 (0000ms, 2599ms total)
T5B00 040:197 JLINK_ReadReg(FPS19)  returns 0x00000000 (0000ms, 2599ms total)
T5B00 040:197 JLINK_ReadReg(FPS20)  returns 0x00000000 (0000ms, 2599ms total)
T5B00 040:197 JLINK_ReadReg(FPS21)  returns 0x00000000 (0000ms, 2599ms total)
T5B00 040:197 JLINK_ReadReg(FPS22)  returns 0x00000000 (0000ms, 2599ms total)
T5B00 040:197 JLINK_ReadReg(FPS23)  returns 0x00000000 (0000ms, 2599ms total)
T5B00 040:197 JLINK_ReadReg(FPS24)  returns 0x00000000 (0000ms, 2599ms total)
T5B00 040:197 JLINK_ReadReg(FPS25)  returns 0x00000000 (0000ms, 2599ms total)
T5B00 040:197 JLINK_ReadReg(FPS26)  returns 0x00000000 (0000ms, 2599ms total)
T5B00 040:197 JLINK_ReadReg(FPS27)  returns 0x00000000 (0000ms, 2599ms total)
T5B00 040:197 JLINK_ReadReg(FPS28)  returns 0x00000000 (0000ms, 2599ms total)
T5B00 040:197 JLINK_ReadReg(FPS29)  returns 0x00000000 (0000ms, 2599ms total)
T5B00 040:197 JLINK_ReadReg(FPS30)  returns 0x00000000 (0000ms, 2599ms total)
T5B00 040:197 JLINK_ReadReg(FPS31)  returns 0xFFFFFFFF (0000ms, 2599ms total)
T5B00 040:197 JLINK_ReadMemU32(0xE0001004, 0x0001 Items, ...) - Data: 00 00 00 00  returns 0x01 (0000ms, 2599ms total)
T5B00 040:292 JLINK_ReadMemEx(0x08000298, 0x003C Bytes, ..., Flags = 0x02000000) -- CPU_ReadMem(128 bytes @ 0x08000280) -- Updating C cache (128 bytes @ 0x08000280) -- Read from C cache (60 bytes @ 0x08000298) - Data: DF F8 0C D0 00 F0 2A F8 00 48 00 47 ED 18 00 08 ...  returns 0x3C (0001ms, 2600ms total)
T1FA0 041:076 JLINK_ReadMemEx(0x080002AC, 0x0002 Bytes, ..., Flags = 0x02000000) -- Read from C cache (2 bytes @ 0x080002AC) - Data: 06 48  returns 0x02 (0000ms, 2600ms total)
T1FA0 041:076 JLINK_SetBPEx(Addr = 0x080018EC, Type = 0xFFFFFFF2)  returns 0x00000001 (0000ms, 2600ms total)
T1FA0 041:076 JLINK_Go() -- CPU_ReadMem(4 bytes @ 0xE0001000) -- CPU_WriteMem(4 bytes @ 0xE0002008) -- CPU_WriteMem(4 bytes @ 0xE000200C) -- CPU_WriteMem(4 bytes @ 0xE0002010) -- CPU_WriteMem(4 bytes @ 0xE0002014) -- CPU_WriteMem(4 bytes @ 0xE0002018) -- CPU_WriteMem(4 bytes @ 0xE000201C) -- CPU_WriteMem(4 bytes @ 0xE0002020) -- CPU_WriteMem(4 bytes @ 0xE0002024) -- CPU_WriteMem(4 bytes @ 0xE0001004) (0011ms, 2611ms total)
T1FA0 041:188 JLINK_IsHalted()  returns TRUE (0005ms, 2616ms total)
T1FA0 041:193 JLINK_Halt()  returns 0x00 (0000ms, 2611ms total)
T1FA0 041:193 JLINK_IsHalted()  returns TRUE (0000ms, 2611ms total)
T1FA0 041:193 JLINK_IsHalted()  returns TRUE (0000ms, 2611ms total)
T1FA0 041:193 JLINK_IsHalted()  returns TRUE (0000ms, 2611ms total)
T1FA0 041:193 JLINK_ReadReg(R15 (PC))  returns 0x080018EC (0000ms, 2611ms total)
T1FA0 041:193 JLINK_ReadReg(XPSR)  returns 0x61000000 (0000ms, 2611ms total)
T1FA0 041:193 JLINK_ClrBPEx(BPHandle = 0x00000001)  returns 0x00 (0000ms, 2611ms total)
T1FA0 041:193 JLINK_ReadMemU32(0xE000ED30, 0x0001 Items, ...) -- CPU_ReadMem(4 bytes @ 0xE000ED30) - Data: 02 00 00 00  returns 0x01 (0002ms, 2613ms total)
T1FA0 041:195 JLINK_ReadMemU32(0xE0001028, 0x0001 Items, ...) -- CPU_ReadMem(4 bytes @ 0xE0001028) - Data: 00 00 00 00  returns 0x01 (0002ms, 2615ms total)
T1FA0 041:197 JLINK_ReadMemU32(0xE0001038, 0x0001 Items, ...) -- CPU_ReadMem(4 bytes @ 0xE0001038) - Data: 00 02 00 00  returns 0x01 (0002ms, 2617ms total)
T1FA0 041:199 JLINK_ReadMemU32(0xE0001048, 0x0001 Items, ...) -- CPU_ReadMem(4 bytes @ 0xE0001048) - Data: 00 00 00 00  returns 0x01 (0002ms, 2619ms total)
T1FA0 041:201 JLINK_ReadMemU32(0xE0001058, 0x0001 Items, ...) -- CPU_ReadMem(4 bytes @ 0xE0001058) - Data: 00 00 00 00  returns 0x01 (0002ms, 2621ms total)
T1FA0 041:203 JLINK_ReadReg(R0)  returns 0x080018ED (0000ms, 2621ms total)
T1FA0 041:203 JLINK_ReadReg(R1)  returns 0x20000428 (0000ms, 2621ms total)
T1FA0 041:203 JLINK_ReadReg(R2)  returns 0x00000000 (0000ms, 2621ms total)
T1FA0 041:203 JLINK_ReadReg(R3)  returns 0x080018DD (0000ms, 2621ms total)
T1FA0 041:203 JLINK_ReadReg(R4)  returns 0x08001960 (0000ms, 2621ms total)
T1FA0 041:203 JLINK_ReadReg(R5)  returns 0x08001960 (0000ms, 2621ms total)
T1FA0 041:203 JLINK_ReadReg(R6)  returns 0x00000000 (0000ms, 2621ms total)
T1FA0 041:203 JLINK_ReadReg(R7)  returns 0x00000000 (0000ms, 2621ms total)
T1FA0 041:203 JLINK_ReadReg(R8)  returns 0x00000000 (0000ms, 2621ms total)
T1FA0 041:203 JLINK_ReadReg(R9)  returns 0x00000000 (0000ms, 2621ms total)
T1FA0 041:203 JLINK_ReadReg(R10)  returns 0x00000000 (0000ms, 2621ms total)
T1FA0 041:203 JLINK_ReadReg(R11)  returns 0x00000000 (0000ms, 2621ms total)
T1FA0 041:203 JLINK_ReadReg(R12)  returns 0x00000000 (0000ms, 2621ms total)
T1FA0 041:203 JLINK_ReadReg(R13 (SP))  returns 0x20000428 (0000ms, 2621ms total)
T1FA0 041:203 JLINK_ReadReg(R14)  returns 0x08000311 (0000ms, 2621ms total)
T1FA0 041:203 JLINK_ReadReg(R15 (PC))  returns 0x080018EC (0000ms, 2621ms total)
T1FA0 041:203 JLINK_ReadReg(XPSR)  returns 0x61000000 (0000ms, 2621ms total)
T1FA0 041:203 JLINK_ReadReg(MSP)  returns 0x20000428 (0000ms, 2621ms total)
T1FA0 041:203 JLINK_ReadReg(PSP)  returns 0x00000000 (0000ms, 2621ms total)
T1FA0 041:203 JLINK_ReadReg(CFBP)  returns 0x00000000 (0000ms, 2621ms total)
T1FA0 041:203 JLINK_ReadReg(FPSCR)  returns 0x00000000 (0006ms, 2627ms total)
T1FA0 041:209 JLINK_ReadReg(FPS0)  returns 0x00000000 (0000ms, 2627ms total)
T1FA0 041:209 JLINK_ReadReg(FPS1)  returns 0x00000000 (0000ms, 2627ms total)
T1FA0 041:209 JLINK_ReadReg(FPS2)  returns 0x00000000 (0000ms, 2627ms total)
T1FA0 041:209 JLINK_ReadReg(FPS3)  returns 0x00000000 (0000ms, 2627ms total)
T1FA0 041:209 JLINK_ReadReg(FPS4)  returns 0x00000000 (0000ms, 2627ms total)
T1FA0 041:209 JLINK_ReadReg(FPS5)  returns 0x00000000 (0000ms, 2627ms total)
T1FA0 041:209 JLINK_ReadReg(FPS6)  returns 0x00000000 (0000ms, 2627ms total)
T1FA0 041:209 JLINK_ReadReg(FPS7)  returns 0x00000000 (0000ms, 2627ms total)
T1FA0 041:209 JLINK_ReadReg(FPS8)  returns 0x00000000 (0000ms, 2627ms total)
T1FA0 041:209 JLINK_ReadReg(FPS9)  returns 0x00000000 (0000ms, 2627ms total)
T1FA0 041:209 JLINK_ReadReg(FPS10)  returns 0x00000000 (0000ms, 2627ms total)
T1FA0 041:209 JLINK_ReadReg(FPS11)  returns 0x00000000 (0000ms, 2627ms total)
T1FA0 041:209 JLINK_ReadReg(FPS12)  returns 0x00000000 (0000ms, 2627ms total)
T1FA0 041:209 JLINK_ReadReg(FPS13)  returns 0x00000000 (0000ms, 2627ms total)
T1FA0 041:209 JLINK_ReadReg(FPS14)  returns 0x00000000 (0000ms, 2627ms total)
T1FA0 041:209 JLINK_ReadReg(FPS15)  returns 0xFFFFFFFF (0000ms, 2627ms total)
T1FA0 041:209 JLINK_ReadReg(FPS16)  returns 0x00000000 (0000ms, 2627ms total)
T1FA0 041:209 JLINK_ReadReg(FPS17)  returns 0x00000000 (0000ms, 2627ms total)
T1FA0 041:209 JLINK_ReadReg(FPS18)  returns 0x00000000 (0000ms, 2627ms total)
T1FA0 041:209 JLINK_ReadReg(FPS19)  returns 0x00000000 (0000ms, 2627ms total)
T1FA0 041:209 JLINK_ReadReg(FPS20)  returns 0x00000000 (0000ms, 2627ms total)
T1FA0 041:209 JLINK_ReadReg(FPS21)  returns 0x00000000 (0000ms, 2627ms total)
T1FA0 041:209 JLINK_ReadReg(FPS22)  returns 0x00000000 (0000ms, 2627ms total)
T1FA0 041:209 JLINK_ReadReg(FPS23)  returns 0x00000000 (0000ms, 2627ms total)
T1FA0 041:209 JLINK_ReadReg(FPS24)  returns 0x00000000 (0000ms, 2627ms total)
T1FA0 041:209 JLINK_ReadReg(FPS25)  returns 0x00000000 (0000ms, 2627ms total)
T1FA0 041:209 JLINK_ReadReg(FPS26)  returns 0x00000000 (0000ms, 2627ms total)
T1FA0 041:209 JLINK_ReadReg(FPS27)  returns 0x00000000 (0000ms, 2627ms total)
T1FA0 041:209 JLINK_ReadReg(FPS28)  returns 0x00000000 (0000ms, 2627ms total)
T1FA0 041:209 JLINK_ReadReg(FPS29)  returns 0x00000000 (0000ms, 2627ms total)
T1FA0 041:209 JLINK_ReadReg(FPS30)  returns 0x00000000 (0000ms, 2627ms total)
T1FA0 041:209 JLINK_ReadReg(FPS31)  returns 0xFFFFFFFF (0000ms, 2627ms total)
T5B00 041:212 JLINK_ReadMemU32(0xE0001004, 0x0001 Items, ...) -- CPU_ReadMem(4 bytes @ 0xE0001004) - Data: E0 05 00 00  returns 0x01 (0002ms, 2629ms total)
T5B00 041:215 JLINK_ReadMemEx(0x080017EC, 0x0014 Bytes, ..., Flags = 0x02000000) -- CPU_ReadMem(64 bytes @ 0x080017C0) -- Updating C cache (64 bytes @ 0x080017C0) -- Read from C cache (20 bytes @ 0x080017EC) - Data: CD E9 45 24 D3 01 42 AA 3F 20 CD E9 47 43 03 21 ...  returns 0x14 (0002ms, 2631ms total)
T5B00 041:217 JLINK_ReadMemEx(0x08001800, 0x0028 Bytes, ..., Flags = 0x02000000) -- CPU_ReadMem(64 bytes @ 0x08001800) -- Updating C cache (64 bytes @ 0x08001800) -- Read from C cache (40 bytes @ 0x08001800) - Data: 23 00 02 21 42 A8 FF F7 61 FA E0 02 00 90 41 12 ...  returns 0x28 (0002ms, 2633ms total)
T5B00 041:219 JLINK_ReadMemEx(0x08001828, 0x003C Bytes, ..., Flags = 0x02000000) -- CPU_ReadMem(64 bytes @ 0x08001840) -- Updating C cache (64 bytes @ 0x08001840) -- Read from C cache (60 bytes @ 0x08001828) - Data: 00 20 1C 4B 44 F4 70 04 14 60 10 33 0A 68 1A 4C ...  returns 0x3C (0002ms, 2635ms total)
T5B00 041:221 JLINK_ReadMemEx(0x08001864, 0x003C Bytes, ..., Flags = 0x02000000) -- CPU_ReadMem(64 bytes @ 0x08001880) -- Updating C cache (64 bytes @ 0x08001880) -- Read from C cache (60 bytes @ 0x08001864) - Data: 2A 1D 18 60 13 1D 20 60 1C 1D 28 60 10 60 18 60 ...  returns 0x3C (0002ms, 2637ms total)
T5B00 041:223 JLINK_ReadMemEx(0x080018A8, 0x003C Bytes, ..., Flags = 0x02000000) -- CPU_ReadMem(64 bytes @ 0x080018C0) -- Updating C cache (64 bytes @ 0x080018C0) -- Read from C cache (60 bytes @ 0x080018A8) - Data: FE E7 09 07 00 28 4F EA 11 61 04 DB 00 F1 E0 20 ...  returns 0x3C (0002ms, 2639ms total)
T5B00 041:225 JLINK_ReadMemEx(0x080018E4, 0x003C Bytes, ..., Flags = 0x02000000) -- CPU_ReadMem(64 bytes @ 0x08001900) -- Updating C cache (64 bytes @ 0x08001900) -- Read from C cache (60 bytes @ 0x080018E4) - Data: 00 2A FB D1 70 47 00 00 08 B5 FE F7 23 FD FF F7 ...  returns 0x3C (0002ms, 2641ms total)
T1FA0 049:796 JLINK_ReadMemEx(0x080018EC, 0x0002 Bytes, ..., Flags = 0x02000000) -- Read from C cache (2 bytes @ 0x080018EC) - Data: 08 B5  returns 0x02 (0000ms, 2641ms total)
T1FA0 049:796 JLINK_SetBPEx(Addr = 0x08001916, Type = 0xFFFFFFF2)  returns 0x00000002 (0000ms, 2641ms total)
T1FA0 049:796 JLINK_Go() -- CPU_ReadMem(4 bytes @ 0xE0001000) -- CPU_WriteMem(4 bytes @ 0xE0002008) (0008ms, 2649ms total)
T1FA0 049:905 JLINK_IsHalted()  returns TRUE (0003ms, 2652ms total)
T1FA0 049:908 JLINK_Halt()  returns 0x00 (0000ms, 2649ms total)
T1FA0 049:908 JLINK_IsHalted()  returns TRUE (0000ms, 2649ms total)
T1FA0 049:908 JLINK_IsHalted()  returns TRUE (0000ms, 2649ms total)
T1FA0 049:908 JLINK_IsHalted()  returns TRUE (0000ms, 2649ms total)
T1FA0 049:908 JLINK_ReadReg(R15 (PC))  returns 0x08001916 (0000ms, 2649ms total)
T1FA0 049:908 JLINK_ReadReg(XPSR)  returns 0x61000000 (0000ms, 2649ms total)
T1FA0 049:908 JLINK_ClrBPEx(BPHandle = 0x00000002)  returns 0x00 (0000ms, 2649ms total)
T1FA0 049:908 JLINK_ReadMemU32(0xE000ED30, 0x0001 Items, ...) -- CPU_ReadMem(4 bytes @ 0xE000ED30) - Data: 02 00 00 00  returns 0x01 (0002ms, 2651ms total)
T1FA0 049:910 JLINK_ReadMemU32(0xE0001028, 0x0001 Items, ...) -- CPU_ReadMem(4 bytes @ 0xE0001028) - Data: 00 00 00 00  returns 0x01 (0002ms, 2653ms total)
T1FA0 049:912 JLINK_ReadMemU32(0xE0001038, 0x0001 Items, ...) -- CPU_ReadMem(4 bytes @ 0xE0001038) - Data: 00 02 00 00  returns 0x01 (0002ms, 2655ms total)
T1FA0 049:914 JLINK_ReadMemU32(0xE0001048, 0x0001 Items, ...) -- CPU_ReadMem(4 bytes @ 0xE0001048) - Data: 00 00 00 00  returns 0x01 (0002ms, 2657ms total)
T1FA0 049:916 JLINK_ReadMemU32(0xE0001058, 0x0001 Items, ...) -- CPU_ReadMem(4 bytes @ 0xE0001058) - Data: 00 00 00 00  returns 0x01 (0002ms, 2659ms total)
T1FA0 049:918 JLINK_ReadReg(R0)  returns 0x00000000 (0000ms, 2659ms total)
T1FA0 049:918 JLINK_ReadReg(R1)  returns 0x00000004 (0000ms, 2659ms total)
T1FA0 049:918 JLINK_ReadReg(R2)  returns 0x00000001 (0000ms, 2659ms total)
T1FA0 049:918 JLINK_ReadReg(R3)  returns 0x00000000 (0000ms, 2659ms total)
T1FA0 049:918 JLINK_ReadReg(R4)  returns 0x08001960 (0000ms, 2659ms total)
T1FA0 049:918 JLINK_ReadReg(R5)  returns 0x08001960 (0000ms, 2659ms total)
T1FA0 049:918 JLINK_ReadReg(R6)  returns 0x00000000 (0000ms, 2659ms total)
T1FA0 049:918 JLINK_ReadReg(R7)  returns 0x00000000 (0000ms, 2659ms total)
T1FA0 049:918 JLINK_ReadReg(R8)  returns 0x00000000 (0000ms, 2659ms total)
T1FA0 049:918 JLINK_ReadReg(R9)  returns 0x00000000 (0000ms, 2659ms total)
T1FA0 049:918 JLINK_ReadReg(R10)  returns 0x00000000 (0000ms, 2659ms total)
T1FA0 049:918 JLINK_ReadReg(R11)  returns 0x00000000 (0000ms, 2659ms total)
T1FA0 049:918 JLINK_ReadReg(R12)  returns 0x00000000 (0000ms, 2659ms total)
T1FA0 049:918 JLINK_ReadReg(R13 (SP))  returns 0x20000420 (0000ms, 2659ms total)
T1FA0 049:918 JLINK_ReadReg(R14)  returns 0x08001505 (0000ms, 2659ms total)
T1FA0 049:918 JLINK_ReadReg(R15 (PC))  returns 0x08001916 (0000ms, 2659ms total)
T1FA0 049:918 JLINK_ReadReg(XPSR)  returns 0x61000000 (0000ms, 2659ms total)
T1FA0 049:918 JLINK_ReadReg(MSP)  returns 0x20000420 (0000ms, 2659ms total)
T1FA0 049:918 JLINK_ReadReg(PSP)  returns 0x00000000 (0000ms, 2659ms total)
T1FA0 049:918 JLINK_ReadReg(CFBP)  returns 0x04000000 (0000ms, 2659ms total)
T1FA0 049:918 JLINK_ReadReg(FPSCR)  returns 0x00000000 (0006ms, 2665ms total)
T1FA0 049:924 JLINK_ReadReg(FPS0)  returns 0x17D78400 (0000ms, 2665ms total)
T1FA0 049:924 JLINK_ReadReg(FPS1)  returns 0x40000000 (0000ms, 2665ms total)
T1FA0 049:924 JLINK_ReadReg(FPS2)  returns 0x4DBEBC20 (0000ms, 2665ms total)
T1FA0 049:924 JLINK_ReadReg(FPS3)  returns 0x00BEBC20 (0000ms, 2665ms total)
T1FA0 049:924 JLINK_ReadReg(FPS4)  returns 0x427C0000 (0000ms, 2665ms total)
T1FA0 049:924 JLINK_ReadReg(FPS5)  returns 0x00000000 (0000ms, 2665ms total)
T1FA0 049:924 JLINK_ReadReg(FPS6)  returns 0x00000000 (0000ms, 2665ms total)
T1FA0 049:924 JLINK_ReadReg(FPS7)  returns 0x00000000 (0000ms, 2665ms total)
T1FA0 049:924 JLINK_ReadReg(FPS8)  returns 0x00000000 (0000ms, 2665ms total)
T1FA0 049:924 JLINK_ReadReg(FPS9)  returns 0x00000000 (0000ms, 2665ms total)
T1FA0 049:924 JLINK_ReadReg(FPS10)  returns 0x00000000 (0000ms, 2665ms total)
T1FA0 049:924 JLINK_ReadReg(FPS11)  returns 0x00000000 (0000ms, 2665ms total)
T1FA0 049:924 JLINK_ReadReg(FPS12)  returns 0x00000000 (0000ms, 2665ms total)
T1FA0 049:924 JLINK_ReadReg(FPS13)  returns 0x00000000 (0000ms, 2665ms total)
T1FA0 049:924 JLINK_ReadReg(FPS14)  returns 0x00000000 (0000ms, 2665ms total)
T1FA0 049:924 JLINK_ReadReg(FPS15)  returns 0xFFFFFFFF (0000ms, 2665ms total)
T1FA0 049:924 JLINK_ReadReg(FPS16)  returns 0x00000000 (0000ms, 2665ms total)
T1FA0 049:924 JLINK_ReadReg(FPS17)  returns 0x00000000 (0000ms, 2665ms total)
T1FA0 049:924 JLINK_ReadReg(FPS18)  returns 0x00000000 (0000ms, 2665ms total)
T1FA0 049:924 JLINK_ReadReg(FPS19)  returns 0x00000000 (0000ms, 2665ms total)
T1FA0 049:924 JLINK_ReadReg(FPS20)  returns 0x00000000 (0000ms, 2665ms total)
T1FA0 049:924 JLINK_ReadReg(FPS21)  returns 0x00000000 (0000ms, 2665ms total)
T1FA0 049:924 JLINK_ReadReg(FPS22)  returns 0x00000000 (0000ms, 2665ms total)
T1FA0 049:924 JLINK_ReadReg(FPS23)  returns 0x00000000 (0000ms, 2665ms total)
T1FA0 049:924 JLINK_ReadReg(FPS24)  returns 0x00000000 (0000ms, 2665ms total)
T1FA0 049:924 JLINK_ReadReg(FPS25)  returns 0x00000000 (0000ms, 2665ms total)
T1FA0 049:924 JLINK_ReadReg(FPS26)  returns 0x00000000 (0000ms, 2665ms total)
T1FA0 049:924 JLINK_ReadReg(FPS27)  returns 0x00000000 (0000ms, 2665ms total)
T1FA0 049:924 JLINK_ReadReg(FPS28)  returns 0x00000000 (0000ms, 2665ms total)
T1FA0 049:924 JLINK_ReadReg(FPS29)  returns 0x00000000 (0000ms, 2665ms total)
T1FA0 049:924 JLINK_ReadReg(FPS30)  returns 0x00000000 (0000ms, 2665ms total)
T1FA0 049:924 JLINK_ReadReg(FPS31)  returns 0xFFFFFFFF (0000ms, 2665ms total)
T5B00 049:924 JLINK_ReadMemEx(0x20000424, 0x0004 Bytes, ..., Flags = 0x02000000) -- CPU_ReadMem(64 bytes @ 0x20000400) -- Updating C cache (64 bytes @ 0x20000400) -- Read from C cache (4 bytes @ 0x20000424) - Data: 11 03 00 08  returns 0x04 (0002ms, 2667ms total)
T5B00 049:926 JLINK_ReadMemU32(0xE0001004, 0x0001 Items, ...) -- CPU_ReadMem(4 bytes @ 0xE0001004) - Data: E1 6D 00 00  returns 0x01 (0002ms, 2669ms total)
T5B00 049:930 JLINK_ReadMemEx(0x08001912, 0x0002 Bytes, ..., Flags = 0x02000000) -- CPU_ReadMem(64 bytes @ 0x08001900) -- Updating C cache (64 bytes @ 0x08001900) -- Read from C cache (2 bytes @ 0x08001912) - Data: FF F7  returns 0x02 (0001ms, 2670ms total)
T5B00 049:931 JLINK_ReadMemEx(0x08001914, 0x003C Bytes, ..., Flags = 0x02000000) -- CPU_ReadMem(64 bytes @ 0x08001940) -- Updating C cache (64 bytes @ 0x08001940) -- Read from C cache (60 bytes @ 0x08001914) - Data: EA FD 05 49 03 48 FF F7 B1 FD FA E7 E0 44 02 58 ...  returns 0x3C (0002ms, 2672ms total)
T5B00 049:933 JLINK_ReadMemEx(0x0800190E, 0x0002 Bytes, ..., Flags = 0x02000000) -- Read from C cache (2 bytes @ 0x0800190E) - Data: C0 E9  returns 0x02 (0000ms, 2672ms total)
T5B00 049:933 JLINK_ReadMemEx(0x08001910, 0x003C Bytes, ..., Flags = 0x02000000) -- Read from C cache (60 bytes @ 0x08001910) - Data: 00 12 FF F7 EA FD 05 49 03 48 FF F7 B1 FD FA E7 ...  returns 0x3C (0000ms, 2672ms total)
T5B00 051:178 JLINK_ReadMemEx(0x20000000, 0x0004 Bytes, ..., Flags = 0x02000000) -- CPU_ReadMem(64 bytes @ 0x20000000) -- Updating C cache (64 bytes @ 0x20000000) -- Read from C cache (4 bytes @ 0x20000000) - Data: 00 00 00 00  returns 0x04 (0001ms, 2673ms total)
T1FA0 054:516 JLINK_ReadMemEx(0x08001916, 0x0002 Bytes, ..., Flags = 0x02000000) -- Read from C cache (2 bytes @ 0x08001916) - Data: 05 49  returns 0x02 (0000ms, 2673ms total)
T1FA0 054:516 JLINK_Step() -- Read from C cache (2 bytes @ 0x08001916) -- CPU_ReadMem(4 bytes @ 0xE000ED18) -- CPU_WriteMem(4 bytes @ 0xE000ED18) -- CPU_ReadMem(4 bytes @ 0xE000ED18) -- CPU_WriteMem(4 bytes @ 0xE000ED18) -- Read from C cache (4 bytes @ 0x0800192C) -- Simulated  returns 0x00 (0010ms, 2683ms total)
T1FA0 054:526 JLINK_ReadReg(R15 (PC))  returns 0x08001918 (0000ms, 2683ms total)
T1FA0 054:526 JLINK_ReadReg(XPSR)  returns 0x61000000 (0000ms, 2683ms total)
T1FA0 054:526 JLINK_SetBPEx(Addr = 0x08001916, Type = 0xFFFFFFF2)  returns 0x00000003 (0000ms, 2683ms total)
T1FA0 054:526 JLINK_Go() -- CPU_ReadMem(4 bytes @ 0xE0001000) -- CPU_WriteMem(4 bytes @ 0xE0001004) (0008ms, 2691ms total)
T1FA0 054:635 JLINK_IsHalted()  returns TRUE (0005ms, 2696ms total)
T1FA0 054:640 JLINK_Halt()  returns 0x00 (0000ms, 2691ms total)
T1FA0 054:640 JLINK_IsHalted()  returns TRUE (0000ms, 2691ms total)
T1FA0 054:640 JLINK_IsHalted()  returns TRUE (0000ms, 2691ms total)
T1FA0 054:640 JLINK_IsHalted()  returns TRUE (0000ms, 2691ms total)
T1FA0 054:640 JLINK_ReadReg(R15 (PC))  returns 0x08001916 (0000ms, 2691ms total)
T1FA0 054:640 JLINK_ReadReg(XPSR)  returns 0x61000000 (0000ms, 2691ms total)
T1FA0 054:640 JLINK_ClrBPEx(BPHandle = 0x00000003)  returns 0x00 (0000ms, 2691ms total)
T1FA0 054:640 JLINK_ReadMemU32(0xE000ED30, 0x0001 Items, ...) -- CPU_ReadMem(4 bytes @ 0xE000ED30) - Data: 02 00 00 00  returns 0x01 (0002ms, 2693ms total)
T1FA0 054:642 JLINK_ReadMemU32(0xE0001028, 0x0001 Items, ...) -- CPU_ReadMem(4 bytes @ 0xE0001028) - Data: 00 00 00 00  returns 0x01 (0002ms, 2695ms total)
T1FA0 054:644 JLINK_ReadMemU32(0xE0001038, 0x0001 Items, ...) -- CPU_ReadMem(4 bytes @ 0xE0001038) - Data: 00 02 00 00  returns 0x01 (0002ms, 2697ms total)
T1FA0 054:646 JLINK_ReadMemU32(0xE0001048, 0x0001 Items, ...) -- CPU_ReadMem(4 bytes @ 0xE0001048) - Data: 00 00 00 00  returns 0x01 (0002ms, 2699ms total)
T1FA0 054:648 JLINK_ReadMemU32(0xE0001058, 0x0001 Items, ...) -- CPU_ReadMem(4 bytes @ 0xE0001058) - Data: 00 00 00 00  returns 0x01 (0002ms, 2701ms total)
T1FA0 054:650 JLINK_ReadReg(R0)  returns 0x00000000 (0000ms, 2701ms total)
T1FA0 054:650 JLINK_ReadReg(R1)  returns 0x20000000 (0000ms, 2701ms total)
T1FA0 054:650 JLINK_ReadReg(R2)  returns 0x00000001 (0000ms, 2701ms total)
T1FA0 054:650 JLINK_ReadReg(R3)  returns 0x00000000 (0000ms, 2701ms total)
T1FA0 054:650 JLINK_ReadReg(R4)  returns 0x08001960 (0000ms, 2701ms total)
T1FA0 054:650 JLINK_ReadReg(R5)  returns 0x08001960 (0000ms, 2701ms total)
T1FA0 054:650 JLINK_ReadReg(R6)  returns 0x00000000 (0000ms, 2701ms total)
T1FA0 054:650 JLINK_ReadReg(R7)  returns 0x00000000 (0000ms, 2701ms total)
T1FA0 054:650 JLINK_ReadReg(R8)  returns 0x00000000 (0000ms, 2701ms total)
T1FA0 054:650 JLINK_ReadReg(R9)  returns 0x00000000 (0000ms, 2701ms total)
T1FA0 054:650 JLINK_ReadReg(R10)  returns 0x00000000 (0000ms, 2701ms total)
T1FA0 054:650 JLINK_ReadReg(R11)  returns 0x00000000 (0000ms, 2701ms total)
T1FA0 054:650 JLINK_ReadReg(R12)  returns 0x00000000 (0000ms, 2701ms total)
T1FA0 054:650 JLINK_ReadReg(R13 (SP))  returns 0x20000420 (0000ms, 2701ms total)
T1FA0 054:650 JLINK_ReadReg(R14)  returns 0x080014B7 (0000ms, 2701ms total)
T1FA0 054:650 JLINK_ReadReg(R15 (PC))  returns 0x08001916 (0000ms, 2701ms total)
T1FA0 054:650 JLINK_ReadReg(XPSR)  returns 0x61000000 (0000ms, 2701ms total)
T1FA0 054:650 JLINK_ReadReg(MSP)  returns 0x20000420 (0000ms, 2701ms total)
T1FA0 054:650 JLINK_ReadReg(PSP)  returns 0x00000000 (0000ms, 2701ms total)
T1FA0 054:650 JLINK_ReadReg(CFBP)  returns 0x04000000 (0000ms, 2701ms total)
T1FA0 054:650 JLINK_ReadReg(FPSCR)  returns 0x00000000 (0006ms, 2707ms total)
T1FA0 054:656 JLINK_ReadReg(FPS0)  returns 0x17D78400 (0000ms, 2707ms total)
T1FA0 054:656 JLINK_ReadReg(FPS1)  returns 0x40000000 (0000ms, 2707ms total)
T1FA0 054:656 JLINK_ReadReg(FPS2)  returns 0x4DBEBC20 (0000ms, 2707ms total)
T1FA0 054:656 JLINK_ReadReg(FPS3)  returns 0x00BEBC20 (0000ms, 2707ms total)
T1FA0 054:656 JLINK_ReadReg(FPS4)  returns 0x427C0000 (0000ms, 2707ms total)
T1FA0 054:656 JLINK_ReadReg(FPS5)  returns 0x00000000 (0000ms, 2707ms total)
T1FA0 054:656 JLINK_ReadReg(FPS6)  returns 0x00000000 (0000ms, 2707ms total)
T1FA0 054:656 JLINK_ReadReg(FPS7)  returns 0x00000000 (0000ms, 2707ms total)
T1FA0 054:656 JLINK_ReadReg(FPS8)  returns 0x00000000 (0000ms, 2707ms total)
T1FA0 054:656 JLINK_ReadReg(FPS9)  returns 0x00000000 (0000ms, 2707ms total)
T1FA0 054:656 JLINK_ReadReg(FPS10)  returns 0x00000000 (0000ms, 2707ms total)
T1FA0 054:656 JLINK_ReadReg(FPS11)  returns 0x00000000 (0000ms, 2707ms total)
T1FA0 054:656 JLINK_ReadReg(FPS12)  returns 0x00000000 (0000ms, 2707ms total)
T1FA0 054:656 JLINK_ReadReg(FPS13)  returns 0x00000000 (0000ms, 2707ms total)
T1FA0 054:656 JLINK_ReadReg(FPS14)  returns 0x00000000 (0000ms, 2707ms total)
T1FA0 054:656 JLINK_ReadReg(FPS15)  returns 0xFFFFFFFF (0000ms, 2707ms total)
T1FA0 054:656 JLINK_ReadReg(FPS16)  returns 0x00000000 (0000ms, 2707ms total)
T1FA0 054:656 JLINK_ReadReg(FPS17)  returns 0x00000000 (0000ms, 2707ms total)
T1FA0 054:656 JLINK_ReadReg(FPS18)  returns 0x00000000 (0000ms, 2707ms total)
T1FA0 054:656 JLINK_ReadReg(FPS19)  returns 0x00000000 (0000ms, 2707ms total)
T1FA0 054:656 JLINK_ReadReg(FPS20)  returns 0x00000000 (0000ms, 2707ms total)
T1FA0 054:656 JLINK_ReadReg(FPS21)  returns 0x00000000 (0000ms, 2707ms total)
T1FA0 054:656 JLINK_ReadReg(FPS22)  returns 0x00000000 (0000ms, 2707ms total)
T1FA0 054:656 JLINK_ReadReg(FPS23)  returns 0x00000000 (0000ms, 2707ms total)
T1FA0 054:656 JLINK_ReadReg(FPS24)  returns 0x00000000 (0000ms, 2707ms total)
T1FA0 054:656 JLINK_ReadReg(FPS25)  returns 0x00000000 (0000ms, 2707ms total)
T1FA0 054:656 JLINK_ReadReg(FPS26)  returns 0x00000000 (0000ms, 2707ms total)
T1FA0 054:656 JLINK_ReadReg(FPS27)  returns 0x00000000 (0000ms, 2707ms total)
T1FA0 054:656 JLINK_ReadReg(FPS28)  returns 0x00000000 (0000ms, 2707ms total)
T1FA0 054:656 JLINK_ReadReg(FPS29)  returns 0x00000000 (0000ms, 2707ms total)
T1FA0 054:656 JLINK_ReadReg(FPS30)  returns 0x00000000 (0000ms, 2707ms total)
T1FA0 054:656 JLINK_ReadReg(FPS31)  returns 0xFFFFFFFF (0000ms, 2707ms total)
T5B00 054:656 JLINK_ReadMemEx(0x20000424, 0x0004 Bytes, ..., Flags = 0x02000000) -- CPU_ReadMem(64 bytes @ 0x20000400) -- Updating C cache (64 bytes @ 0x20000400) -- Read from C cache (4 bytes @ 0x20000424) - Data: 11 03 00 08  returns 0x04 (0002ms, 2709ms total)
T5B00 054:658 JLINK_ReadMemU32(0xE0001004, 0x0001 Items, ...) -- CPU_ReadMem(4 bytes @ 0xE0001004) - Data: E9 6E 00 00  returns 0x01 (0002ms, 2711ms total)
T5B00 054:660 JLINK_ReadMemEx(0x20000000, 0x0004 Bytes, ..., Flags = 0x02000000) -- CPU_ReadMem(64 bytes @ 0x20000000) -- Updating C cache (64 bytes @ 0x20000000) -- Read from C cache (4 bytes @ 0x20000000) - Data: E1 C9 79 13  returns 0x04 (0002ms, 2713ms total)
T1FA0 057:361 JLINK_ReadMemEx(0x08001916, 0x0002 Bytes, ..., Flags = 0x02000000) -- CPU_ReadMem(64 bytes @ 0x08001900) -- Updating C cache (64 bytes @ 0x08001900) -- Read from C cache (2 bytes @ 0x08001916) - Data: 05 49  returns 0x02 (0002ms, 2715ms total)
T1FA0 057:363 JLINK_Step() -- Read from C cache (2 bytes @ 0x08001916) -- Read from C cache (4 bytes @ 0x0800192C) -- Simulated  returns 0x00 (0002ms, 2717ms total)
T1FA0 057:365 JLINK_ReadReg(R15 (PC))  returns 0x08001918 (0000ms, 2717ms total)
T1FA0 057:365 JLINK_ReadReg(XPSR)  returns 0x61000000 (0000ms, 2717ms total)
T1FA0 057:365 JLINK_SetBPEx(Addr = 0x08001916, Type = 0xFFFFFFF2)  returns 0x00000004 (0000ms, 2717ms total)
T1FA0 057:365 JLINK_Go() -- CPU_ReadMem(4 bytes @ 0xE0001000) -- CPU_WriteMem(4 bytes @ 0xE0001004) (0008ms, 2725ms total)
T1FA0 057:475 JLINK_IsHalted()  returns TRUE (0004ms, 2729ms total)
T1FA0 057:479 JLINK_Halt()  returns 0x00 (0000ms, 2725ms total)
T1FA0 057:479 JLINK_IsHalted()  returns TRUE (0000ms, 2725ms total)
T1FA0 057:479 JLINK_IsHalted()  returns TRUE (0000ms, 2725ms total)
T1FA0 057:479 JLINK_IsHalted()  returns TRUE (0000ms, 2725ms total)
T1FA0 057:479 JLINK_ReadReg(R15 (PC))  returns 0x08001916 (0000ms, 2725ms total)
T1FA0 057:479 JLINK_ReadReg(XPSR)  returns 0x61000000 (0000ms, 2725ms total)
T1FA0 057:479 JLINK_ClrBPEx(BPHandle = 0x00000004)  returns 0x00 (0000ms, 2725ms total)
T1FA0 057:479 JLINK_ReadMemU32(0xE000ED30, 0x0001 Items, ...) -- CPU_ReadMem(4 bytes @ 0xE000ED30) - Data: 02 00 00 00  returns 0x01 (0002ms, 2727ms total)
T1FA0 057:481 JLINK_ReadMemU32(0xE0001028, 0x0001 Items, ...) -- CPU_ReadMem(4 bytes @ 0xE0001028) - Data: 00 00 00 00  returns 0x01 (0002ms, 2729ms total)
T1FA0 057:483 JLINK_ReadMemU32(0xE0001038, 0x0001 Items, ...) -- CPU_ReadMem(4 bytes @ 0xE0001038) - Data: 00 02 00 00  returns 0x01 (0002ms, 2731ms total)
T1FA0 057:485 JLINK_ReadMemU32(0xE0001048, 0x0001 Items, ...) -- CPU_ReadMem(4 bytes @ 0xE0001048) - Data: 00 00 00 00  returns 0x01 (0002ms, 2733ms total)
T1FA0 057:487 JLINK_ReadMemU32(0xE0001058, 0x0001 Items, ...) -- CPU_ReadMem(4 bytes @ 0xE0001058) - Data: 00 00 00 00  returns 0x01 (0002ms, 2735ms total)
T1FA0 057:489 JLINK_ReadReg(R0)  returns 0x00000000 (0000ms, 2735ms total)
T1FA0 057:489 JLINK_ReadReg(R1)  returns 0x20000000 (0000ms, 2735ms total)
T1FA0 057:489 JLINK_ReadReg(R2)  returns 0x00000001 (0000ms, 2735ms total)
T1FA0 057:489 JLINK_ReadReg(R3)  returns 0x00000000 (0000ms, 2735ms total)
T1FA0 057:489 JLINK_ReadReg(R4)  returns 0x08001960 (0000ms, 2735ms total)
T1FA0 057:489 JLINK_ReadReg(R5)  returns 0x08001960 (0000ms, 2735ms total)
T1FA0 057:489 JLINK_ReadReg(R6)  returns 0x00000000 (0000ms, 2735ms total)
T1FA0 057:489 JLINK_ReadReg(R7)  returns 0x00000000 (0000ms, 2735ms total)
T1FA0 057:489 JLINK_ReadReg(R8)  returns 0x00000000 (0000ms, 2735ms total)
T1FA0 057:489 JLINK_ReadReg(R9)  returns 0x00000000 (0000ms, 2735ms total)
T1FA0 057:489 JLINK_ReadReg(R10)  returns 0x00000000 (0000ms, 2735ms total)
T1FA0 057:489 JLINK_ReadReg(R11)  returns 0x00000000 (0000ms, 2735ms total)
T1FA0 057:489 JLINK_ReadReg(R12)  returns 0x00000000 (0000ms, 2735ms total)
T1FA0 057:489 JLINK_ReadReg(R13 (SP))  returns 0x20000420 (0000ms, 2735ms total)
T1FA0 057:489 JLINK_ReadReg(R14)  returns 0x080014B7 (0000ms, 2735ms total)
T1FA0 057:489 JLINK_ReadReg(R15 (PC))  returns 0x08001916 (0000ms, 2735ms total)
T1FA0 057:489 JLINK_ReadReg(XPSR)  returns 0x61000000 (0000ms, 2735ms total)
T1FA0 057:489 JLINK_ReadReg(MSP)  returns 0x20000420 (0000ms, 2735ms total)
T1FA0 057:489 JLINK_ReadReg(PSP)  returns 0x00000000 (0000ms, 2735ms total)
T1FA0 057:489 JLINK_ReadReg(CFBP)  returns 0x04000000 (0000ms, 2735ms total)
T1FA0 057:489 JLINK_ReadReg(FPSCR)  returns 0x00000000 (0006ms, 2741ms total)
T1FA0 057:495 JLINK_ReadReg(FPS0)  returns 0x17D78400 (0000ms, 2741ms total)
T1FA0 057:495 JLINK_ReadReg(FPS1)  returns 0x40000000 (0000ms, 2741ms total)
T1FA0 057:495 JLINK_ReadReg(FPS2)  returns 0x4DBEBC20 (0000ms, 2741ms total)
T1FA0 057:495 JLINK_ReadReg(FPS3)  returns 0x00BEBC20 (0000ms, 2741ms total)
T1FA0 057:495 JLINK_ReadReg(FPS4)  returns 0x427C0000 (0000ms, 2741ms total)
T1FA0 057:495 JLINK_ReadReg(FPS5)  returns 0x00000000 (0000ms, 2741ms total)
T1FA0 057:495 JLINK_ReadReg(FPS6)  returns 0x00000000 (0000ms, 2741ms total)
T1FA0 057:495 JLINK_ReadReg(FPS7)  returns 0x00000000 (0000ms, 2741ms total)
T1FA0 057:495 JLINK_ReadReg(FPS8)  returns 0x00000000 (0000ms, 2741ms total)
T1FA0 057:495 JLINK_ReadReg(FPS9)  returns 0x00000000 (0000ms, 2741ms total)
T1FA0 057:495 JLINK_ReadReg(FPS10)  returns 0x00000000 (0000ms, 2741ms total)
T1FA0 057:495 JLINK_ReadReg(FPS11)  returns 0x00000000 (0000ms, 2741ms total)
T1FA0 057:495 JLINK_ReadReg(FPS12)  returns 0x00000000 (0000ms, 2741ms total)
T1FA0 057:495 JLINK_ReadReg(FPS13)  returns 0x00000000 (0000ms, 2741ms total)
T1FA0 057:495 JLINK_ReadReg(FPS14)  returns 0x00000000 (0000ms, 2741ms total)
T1FA0 057:495 JLINK_ReadReg(FPS15)  returns 0xFFFFFFFF (0000ms, 2741ms total)
T1FA0 057:495 JLINK_ReadReg(FPS16)  returns 0x00000000 (0000ms, 2741ms total)
T1FA0 057:495 JLINK_ReadReg(FPS17)  returns 0x00000000 (0000ms, 2741ms total)
T1FA0 057:495 JLINK_ReadReg(FPS18)  returns 0x00000000 (0000ms, 2741ms total)
T1FA0 057:495 JLINK_ReadReg(FPS19)  returns 0x00000000 (0000ms, 2741ms total)
T1FA0 057:495 JLINK_ReadReg(FPS20)  returns 0x00000000 (0000ms, 2741ms total)
T1FA0 057:495 JLINK_ReadReg(FPS21)  returns 0x00000000 (0000ms, 2741ms total)
T1FA0 057:495 JLINK_ReadReg(FPS22)  returns 0x00000000 (0000ms, 2741ms total)
T1FA0 057:495 JLINK_ReadReg(FPS23)  returns 0x00000000 (0000ms, 2741ms total)
T1FA0 057:495 JLINK_ReadReg(FPS24)  returns 0x00000000 (0000ms, 2741ms total)
T1FA0 057:495 JLINK_ReadReg(FPS25)  returns 0x00000000 (0000ms, 2741ms total)
T1FA0 057:495 JLINK_ReadReg(FPS26)  returns 0x00000000 (0000ms, 2741ms total)
T1FA0 057:495 JLINK_ReadReg(FPS27)  returns 0x00000000 (0000ms, 2741ms total)
T1FA0 057:495 JLINK_ReadReg(FPS28)  returns 0x00000000 (0000ms, 2741ms total)
T1FA0 057:495 JLINK_ReadReg(FPS29)  returns 0x00000000 (0001ms, 2742ms total)
T1FA0 057:496 JLINK_ReadReg(FPS30)  returns 0x00000000 (0000ms, 2742ms total)
T1FA0 057:496 JLINK_ReadReg(FPS31)  returns 0xFFFFFFFF (0000ms, 2742ms total)
T5B00 057:496 JLINK_ReadMemEx(0x20000424, 0x0004 Bytes, ..., Flags = 0x02000000) -- CPU_ReadMem(64 bytes @ 0x20000400) -- Updating C cache (64 bytes @ 0x20000400) -- Read from C cache (4 bytes @ 0x20000424) - Data: 11 03 00 08  returns 0x04 (0001ms, 2743ms total)
T5B00 057:497 JLINK_ReadMemU32(0xE0001004, 0x0001 Items, ...) -- CPU_ReadMem(4 bytes @ 0xE0001004) - Data: 89 6F 00 00  returns 0x01 (0002ms, 2745ms total)
T5B00 057:499 JLINK_ReadMemEx(0x20000000, 0x0004 Bytes, ..., Flags = 0x02000000) -- CPU_ReadMem(64 bytes @ 0x20000000) -- Updating C cache (64 bytes @ 0x20000000) -- Read from C cache (4 bytes @ 0x20000000) - Data: 2B F5 A8 53  returns 0x04 (0002ms, 2747ms total)
T1FA0 057:895 JLINK_ReadMemEx(0x08001916, 0x0002 Bytes, ..., Flags = 0x02000000) -- CPU_ReadMem(64 bytes @ 0x08001900) -- Updating C cache (64 bytes @ 0x08001900) -- Read from C cache (2 bytes @ 0x08001916) - Data: 05 49  returns 0x02 (0002ms, 2749ms total)
T1FA0 057:897 JLINK_Step() -- Read from C cache (2 bytes @ 0x08001916) -- Read from C cache (4 bytes @ 0x0800192C) -- Simulated  returns 0x00 (0000ms, 2749ms total)
T1FA0 057:897 JLINK_ReadReg(R15 (PC))  returns 0x08001918 (0000ms, 2749ms total)
T1FA0 057:897 JLINK_ReadReg(XPSR)  returns 0x61000000 (0000ms, 2749ms total)
T1FA0 057:897 JLINK_SetBPEx(Addr = 0x08001916, Type = 0xFFFFFFF2)  returns 0x00000005 (0000ms, 2749ms total)
T1FA0 057:897 JLINK_Go() -- CPU_ReadMem(4 bytes @ 0xE0001000) -- CPU_WriteMem(4 bytes @ 0xE0001004) (0008ms, 2757ms total)
T1FA0 058:006 JLINK_IsHalted()  returns TRUE (0004ms, 2761ms total)
T1FA0 058:010 JLINK_Halt()  returns 0x00 (0000ms, 2757ms total)
T1FA0 058:010 JLINK_IsHalted()  returns TRUE (0000ms, 2757ms total)
T1FA0 058:010 JLINK_IsHalted()  returns TRUE (0000ms, 2757ms total)
T1FA0 058:010 JLINK_IsHalted()  returns TRUE (0000ms, 2757ms total)
T1FA0 058:010 JLINK_ReadReg(R15 (PC))  returns 0x08001916 (0000ms, 2757ms total)
T1FA0 058:010 JLINK_ReadReg(XPSR)  returns 0x61000000 (0000ms, 2757ms total)
T1FA0 058:010 JLINK_ClrBPEx(BPHandle = 0x00000005)  returns 0x00 (0000ms, 2757ms total)
T1FA0 058:010 JLINK_ReadMemU32(0xE000ED30, 0x0001 Items, ...) -- CPU_ReadMem(4 bytes @ 0xE000ED30) - Data: 02 00 00 00  returns 0x01 (0002ms, 2759ms total)
T1FA0 058:012 JLINK_ReadMemU32(0xE0001028, 0x0001 Items, ...) -- CPU_ReadMem(4 bytes @ 0xE0001028) - Data: 00 00 00 00  returns 0x01 (0002ms, 2761ms total)
T1FA0 058:014 JLINK_ReadMemU32(0xE0001038, 0x0001 Items, ...) -- CPU_ReadMem(4 bytes @ 0xE0001038) - Data: 00 02 00 00  returns 0x01 (0002ms, 2763ms total)
T1FA0 058:016 JLINK_ReadMemU32(0xE0001048, 0x0001 Items, ...) -- CPU_ReadMem(4 bytes @ 0xE0001048) - Data: 00 00 00 00  returns 0x01 (0002ms, 2765ms total)
T1FA0 058:018 JLINK_ReadMemU32(0xE0001058, 0x0001 Items, ...) -- CPU_ReadMem(4 bytes @ 0xE0001058) - Data: 00 00 00 00  returns 0x01 (0002ms, 2767ms total)
T1FA0 058:020 JLINK_ReadReg(R0)  returns 0x00000000 (0000ms, 2767ms total)
T1FA0 058:020 JLINK_ReadReg(R1)  returns 0x20000000 (0000ms, 2767ms total)
T1FA0 058:020 JLINK_ReadReg(R2)  returns 0x00000001 (0000ms, 2767ms total)
T1FA0 058:020 JLINK_ReadReg(R3)  returns 0x00000000 (0000ms, 2767ms total)
T1FA0 058:020 JLINK_ReadReg(R4)  returns 0x08001960 (0000ms, 2767ms total)
T1FA0 058:020 JLINK_ReadReg(R5)  returns 0x08001960 (0000ms, 2767ms total)
T1FA0 058:020 JLINK_ReadReg(R6)  returns 0x00000000 (0000ms, 2767ms total)
T1FA0 058:020 JLINK_ReadReg(R7)  returns 0x00000000 (0000ms, 2767ms total)
T1FA0 058:020 JLINK_ReadReg(R8)  returns 0x00000000 (0000ms, 2767ms total)
T1FA0 058:020 JLINK_ReadReg(R9)  returns 0x00000000 (0000ms, 2767ms total)
T1FA0 058:020 JLINK_ReadReg(R10)  returns 0x00000000 (0000ms, 2767ms total)
T1FA0 058:020 JLINK_ReadReg(R11)  returns 0x00000000 (0000ms, 2767ms total)
T1FA0 058:020 JLINK_ReadReg(R12)  returns 0x00000000 (0000ms, 2767ms total)
T1FA0 058:020 JLINK_ReadReg(R13 (SP))  returns 0x20000420 (0000ms, 2767ms total)
T1FA0 058:020 JLINK_ReadReg(R14)  returns 0x080014B7 (0000ms, 2767ms total)
T1FA0 058:020 JLINK_ReadReg(R15 (PC))  returns 0x08001916 (0000ms, 2767ms total)
T1FA0 058:020 JLINK_ReadReg(XPSR)  returns 0x61000000 (0000ms, 2767ms total)
T1FA0 058:020 JLINK_ReadReg(MSP)  returns 0x20000420 (0000ms, 2767ms total)
T1FA0 058:020 JLINK_ReadReg(PSP)  returns 0x00000000 (0000ms, 2767ms total)
T1FA0 058:020 JLINK_ReadReg(CFBP)  returns 0x04000000 (0000ms, 2767ms total)
T1FA0 058:020 JLINK_ReadReg(FPSCR)  returns 0x00000000 (0006ms, 2773ms total)
T1FA0 058:026 JLINK_ReadReg(FPS0)  returns 0x17D78400 (0000ms, 2773ms total)
T1FA0 058:026 JLINK_ReadReg(FPS1)  returns 0x40000000 (0000ms, 2773ms total)
T1FA0 058:026 JLINK_ReadReg(FPS2)  returns 0x4DBEBC20 (0000ms, 2773ms total)
T1FA0 058:026 JLINK_ReadReg(FPS3)  returns 0x00BEBC20 (0000ms, 2773ms total)
T1FA0 058:026 JLINK_ReadReg(FPS4)  returns 0x427C0000 (0000ms, 2773ms total)
T1FA0 058:026 JLINK_ReadReg(FPS5)  returns 0x00000000 (0000ms, 2773ms total)
